
**** 03/01/25 20:13:38 **** PSpice 22.1.0 (15 January 2024) *** ID# 0 ********

 ** Profile: "SCHEMATIC1-sim_reset"  [ C:\Users\15062\Desktop\design\reset-PSpiceFiles\SCHEMATIC1\sim_reset.sim ] 


 ****     CIRCUIT DESCRIPTION


******************************************************************************




** Creating circuit file "sim_reset.cir" 
** WARNING: THIS AUTOMATICALLY GENERATED FILE MAY BE OVERWRITTEN BY SUBSEQUENT SIMULATIONS

*Libraries: 
* Profile Libraries :
* Local Libraries :
* From [PSPICE NETLIST] section of D:\Cadence\Spb_data\cdssetup\OrCAD_PSpice\22.1.0\PSpice.ini file:
.lib "D:\Cadence\SPB_22.1\tools\capture\library\pspice\design_hold_circuit\TLV3601\tlv3601.lib" 
.lib "C:\Users\15062\Desktop\design\model\OPA333\OPAx333.LIB" 
.lib "C:\Users\15062\Desktop\design\model\OPA2735\OPAx735.LIB" 
.lib "C:\Users\15062\Desktop\design\model\OPAx180\OPAx180.LIB" 
.lib "D:\Cadence\SPB_22.1\tools\capture\library\pspice\CSD18532Q5\CSD18532Q5B.lib" 
.lib "C:\Users\15062\Desktop\design\model\CSD18540Q5B\CSD18540Q5B.lib" 
.lib "C:\Users\15062\Desktop\design\model\LM358-TI\lmx58_lm2904.lib" 
.lib "C:\Users\15062\Desktop\design\model\UCC27323\UCC3895_PSPICE_TRANS\ucc3895.lib" 
.lib "C:\Users\15062\Desktop\design\model\TLV3605\tlv3605.lib" 
.lib "D:\Cadence\SPB_22.1\tools\capture\library\pspice\design_hold_circuit\OPA388\OPAx388.LIB" 
.lib "D:\Cadence\SPB_22.1\tools\capture\library\pspice\design_hold_circuit\LMP7721\LMP7721.LIB" 
.lib "D:\Cadence\SPB_22.1\tools\capture\library\pspice\design_hold_circuit\REF5045\REF5045.LIB" 
.lib "D:\Cadence\SPB_22.1\tools\capture\library\pspice\design_hold_circuit\ADG1236\adg1236.lib" 
.lib "D:\Cadence\SPB_22.1\tools\capture\library\pspice\design_hold_circuit\THS3491\ths3491.lib" 
.lib "D:\Cadence\SPB_22.1\tools\capture\library\pspice\design_hold_circuit\CSD25404Q3\CSD25404Q3.lib" 
.lib "D:\Cadence\SPB_22.1\tools\capture\library\pspice\design_hold_circuit\CSD17573Q5B\CSD17573Q5B.lib" 
.lib "D:\Cadence\SPB_22.1\tools\capture\library\pspice\design_hold_circuit\TLV3603\tlv3603.lib" 
.lib "D:\Cadence\SPB_22.1\tools\capture\library\pspice\design_hold_circuit\REF5050\REF5050.LIB" 
.lib "D:\Cadence\SPB_22.1\tools\capture\library\pspice\REF5010_PSPICE_AIO\REF5010.LIB" 
.lib "D:\Cadence\SPB_22.1\tools\capture\library\pspice\sbomao2c\OPAx188.LIB" 
.lib "D:\Cadence\SPB_22.1\tools\capture\library\pspice\slpm140b\CSD17577Q5A.lib" 
.lib "D:\Cadence\SPB_22.1\tools\capture\library\pspice\REF5025_PSPICE_AIO\REF5025.LIB" 
.lib "nom.lib" 

*Analysis directives: 
.TRAN  0 200n 0 
.OPTIONS ADVCONV
.PROBE V(alias(*)) I(alias(*)) W(alias(*)) D(alias(*)) NOISE(alias(*)) 
.INC "..\SCHEMATIC1.net" 



**** INCLUDING SCHEMATIC1.net ****
* source RESET
X_U1         N00199 N00190 N00268 0 N00292 TLV3601
V_V1         N00199 0  
+EXP 4.5 0 10n 10n 1u 10n
V_V2         N00190 0 0.5Vdc
V_V3         N00268 0 5Vdc
R_R1         N00292 0 1k

**** RESUMING sim_reset.cir ****
.END

**** 03/01/25 20:13:38 **** PSpice 22.1.0 (15 January 2024) *** ID# 0 ********

 ** Profile: "SCHEMATIC1-sim_reset"  [ C:\Users\15062\Desktop\design\reset-PSpiceFiles\SCHEMATIC1\sim_reset.sim ] 


 ****     Voltage Controlled Switch MODEL PARAMETERS


******************************************************************************




               X_U1.X_U5.X_SMID._SMID 
         RON    1            
        ROFF    1.000000E+12 
         VON    0            
        VOFF    1            


               X_U1.X_U5.X_SHIZ._SHIZ 
         RON    1            
        ROFF    1.000000E+12 
         VON    0            
        VOFF    1            


               X_U1.X_U5.X_SVOH._SVOH 
         RON    1            
        ROFF    1.000000E+12 
         VON    1            
        VOFF    0            


               X_U1.X_U5.X_SVOL._SVOL 
         RON    1            
        ROFF    1.000000E+12 
         VON    0            
        VOFF    1            


**** 03/01/25 20:13:38 **** PSpice 22.1.0 (15 January 2024) *** ID# 0 ********

 ** Profile: "SCHEMATIC1-sim_reset"  [ C:\Users\15062\Desktop\design\reset-PSpiceFiles\SCHEMATIC1\sim_reset.sim ] 


 ****     INITIAL TRANSIENT SOLUTION       TEMPERATURE =   27.000 DEG C


******************************************************************************



 NODE   VOLTAGE     NODE   VOLTAGE     NODE   VOLTAGE     NODE   VOLTAGE


(N00190)     .5000 (N00199)    4.5000 (N00268)    5.0000 (N00292)    4.7081     

(X_U1.N21103)    4.9505               (X_U1.N21168)    0.0000                   

(X_U1.N21237)    0.0000               (X_U1.IN+BUFF)    4.5000                  

(X_U1.IN-BUFF)     .5000              (X_U1.N785573)    4.5005                  

(X_U1.N786723)    0.0000              (X_U1.N843683)    5.0000                  

(X_U1.N852568)     .0030              (X_U1.N855697)    2.4752                  

(X_U1.N855707)    4.9505              (X_U1.X_U3.VH)     .0015                  

(X_U1.X_U5.1V)    1.0000              (X_U1.X_U7.1V)    1.0000                  

(X_U1.X_U3.OUT)    5.0000             (X_U1.X_U5.MID)    2.5000                 

(X_U1.V+_BUFFER)    5.0000            (X_U1.V-_BUFFER)    0.0000                

(X_U1.X_U3.VMID)    2.5000            (X_U1.X_U2.N20155)    5.3000              

(X_U1.X_U2.N20415)    -.3000          (X_U1.X_U2.N20531)    0.0000              

(X_U1.X_U2.N20539)    -.3000          (X_U1.X_U2.N20826)    0.0000              

(X_U1.X_U2.N20833)    0.0000          (X_U1.X_U2.N20840)    0.0000              

(X_U1.X_U3.INNNEW)     .4985          (X_U1.X_U4.N03175)    2.4752              

(X_U1.X_U5.X_U3.3)    5.0000          (X_U1.X_U5.X_U8.6)    0.0000              

(X_U1.X_U7.N16973)    5.0000          (X_U1.X_U7.N20310)    2.3990              

(X_U1.X_U7.N20377)    5.5100          (X_U1.X_U2.N202710)    5.3000             

(X_U1.X_U2.X_U24.6)    0.0000         (X_U1.X_U5.N774212)    5.0000             

(X_U1.X_U5.N774290)    4.0000         (X_U1.X_U5.N778484)    4.7081             

(X_U1.X_U5.N778496)    4.7128         (X_U1.X_U5.N789513)    1.0000             

(X_U1.X_U5.N850209)    4.7128         (X_U1.X_U5.X_U10.4)    1.0000             

(X_U1.X_U5.N8491902)    4.9953        (X_U1.X_U2.X_U1.OUT2)    0.0000           

(X_U1.X_U5.X_U7.VMID)    2.5000       (X_U1.X_U7.X_U5.OUT2)    0.0000           

(X_U1.X_U2.X_U21.OUT2)    0.0000      (X_U1.X_U2.X_U22.OUT2)    0.0000          

(X_U1.X_U2.X_U23.OUT2)    0.0000      (X_U1.X_U7.X_U13.OUT1)    5.0000          

(X_U1.X_U7.X_U15.OUT2)    0.0000      (X_U1.X_U5.CONTROL_HIZ)    0.0000         

(X_U1.X_U5.CONTROL_MID)    1.0000     




    VOLTAGE SOURCE CURRENTS
    NAME         CURRENT

    V_V1        -1.000E-06
    V_V2        -1.000E-06
    V_V3        -9.608E-03
    X_U1.V_VOS   0.000E+00
    X_U1.V_VHYST   0.000E+00
    X_U1.X_U2.V_VCMNP   0.000E+00
    X_U1.X_U2.V_VCMPN   0.000E+00
    X_U1.X_U2.V_VCMPP   0.000E+00
    X_U1.X_U2.V_VCMNN   0.000E+00
    X_U1.X_U5.V_VLOGIC   0.000E+00
    X_U1.X_U5.V_V1  -2.002E-09
    X_U1.X_U7.V_VS_MIN_SET   0.000E+00
    X_U1.X_U7.V_VS_MAX_SET   0.000E+00
    X_U1.X_U7.V_VLOGIC   0.000E+00

    TOTAL POWER DISSIPATION   4.80E-02  WATTS



          JOB CONCLUDED

**** 03/01/25 20:13:38 **** PSpice 22.1.0 (15 January 2024) *** ID# 0 ********

 ** Profile: "SCHEMATIC1-sim_reset"  [ C:\Users\15062\Desktop\design\reset-PSpiceFiles\SCHEMATIC1\sim_reset.sim ] 


 ****     JOB STATISTICS SUMMARY


******************************************************************************



  Total job time (using Solver 1)   =         .02
