
**** 03/01/25 09:31:15 **** PSpice 22.1.0 (15 January 2024) *** ID# 0 ********

 ** Profile: "SCHEMATIC1-sim_test"  [ C:\Users\15062\Desktop\design\test-pspicefiles\schematic1\sim_test.sim ] 


 ****     CIRCUIT DESCRIPTION


******************************************************************************




** Creating circuit file "sim_test.cir" 
** WARNING: THIS AUTOMATICALLY GENERATED FILE MAY BE OVERWRITTEN BY SUBSEQUENT SIMULATIONS

*Libraries: 
* Profile Libraries :
* Local Libraries :
* From [PSPICE NETLIST] section of D:\Cadence\Spb_data\cdssetup\OrCAD_PSpice\22.1.0\PSpice.ini file:
.lib "C:\Users\15062\Desktop\design\model\TLV3605\tlv3605.lib" 
.lib "D:\Cadence\SPB_22.1\tools\capture\library\pspice\design_hold_circuit\OPA388\OPAx388.LIB" 
.lib "D:\Cadence\SPB_22.1\tools\capture\library\pspice\design_hold_circuit\LMP7721\LMP7721.LIB" 
.lib "D:\Cadence\SPB_22.1\tools\capture\library\pspice\design_hold_circuit\TLV3601\tlv3601.lib" 
.lib "D:\Cadence\SPB_22.1\tools\capture\library\pspice\design_hold_circuit\REF5045\REF5045.LIB" 
.lib "D:\Cadence\SPB_22.1\tools\capture\library\pspice\design_hold_circuit\ADG1236\adg1236.lib" 
.lib "D:\Cadence\SPB_22.1\tools\capture\library\pspice\design_hold_circuit\THS3491\ths3491.lib" 
.lib "D:\Cadence\SPB_22.1\tools\capture\library\pspice\design_hold_circuit\CSD25404Q3\CSD25404Q3.lib" 
.lib "D:\Cadence\SPB_22.1\tools\capture\library\pspice\design_hold_circuit\CSD17573Q5B\CSD17573Q5B.lib" 
.lib "D:\Cadence\SPB_22.1\tools\capture\library\pspice\design_hold_circuit\TLV3603\tlv3603.lib" 
.lib "D:\Cadence\SPB_22.1\tools\capture\library\pspice\design_hold_circuit\REF5050\REF5050.LIB" 
.lib "D:\Cadence\SPB_22.1\tools\capture\library\pspice\REF5010_PSPICE_AIO\REF5010.LIB" 
.lib "D:\Cadence\SPB_22.1\tools\capture\library\pspice\sbomao2c\OPAx188.LIB" 
.lib "D:\Cadence\SPB_22.1\tools\capture\library\pspice\slpm140b\CSD17577Q5A.lib" 
.lib "D:\Cadence\SPB_22.1\tools\capture\library\pspice\REF5025_PSPICE_AIO\REF5025.LIB" 
.lib "nom.lib" 

*Analysis directives: 
.TRAN  0 4u 0 
.OPTIONS ADVCONV
.OPTIONS ITL1= 1000
.OPTIONS ITL2= 200
.PROBE V(alias(*)) I(alias(*)) W(alias(*)) D(alias(*)) NOISE(alias(*)) 
.INC "..\SCHEMATIC1.net" 



**** INCLUDING SCHEMATIC1.net ****
* source TEST
V_V1         VCC 0 5Vdc
V_V2         VSS 0 -5Vdc
V_V3         N26903 0 2Vdc
V_V4         N28616 0 4Vdc
C_C1         0 N28732  1n  TC=0,0 
R_R2         N32314 N29345  460 TC=0,0 
X_U1         N28732 N28616 N30371 VCC VCC VCC 0 N30747 N30741 TLV3605
X_Q1         N30717 N30741 N30567 BFG425W/PLP
V_V6         N30567 0 0.38Vdc
R_R3         VCC N30717  1k TC=0,0 
V_V7         N30974 0  
+PULSE 0 5 50n 1n 1n 1.5u 2u
X_Q2         N32846 N30747 N33338 BFG425W/PLP
V_V8         N32730 0 5Vdc
R_R4         N32846 N32730  1k TC=0,0 
V_V9         N33338 0 0.38Vdc
R_R5         N29345 N33678  30 TC=0,0 
X_D1         N32314 N28732 BAT14-03w/INF
X_Q3         N29345 N30717 N26903 BFG425W/PLP
X_B1         N30974 N32846 N33678 NE325S01/CEL
I_I1         VCC N28732 DC 1uAdc  

**** RESUMING sim_test.cir ****
.END

**** 03/01/25 09:31:15 **** PSpice 22.1.0 (15 January 2024) *** ID# 0 ********

 ** Profile: "SCHEMATIC1-sim_test"  [ C:\Users\15062\Desktop\design\test-pspicefiles\schematic1\sim_test.sim ] 


 ****     Diode MODEL PARAMETERS


******************************************************************************




               X_D1.D1         
          IS   45.266500E-12 
           N    1.082        
          BV    7.2          
         IBV    1.000000E-06 
          RS    4.9          
          TT    3.000000E-12 
         CJO  161.710000E-15 
          VJ     .224        
           M     .1397       
          EG     .73         
         XTI    2.5          


**** 03/01/25 09:31:15 **** PSpice 22.1.0 (15 January 2024) *** ID# 0 ********

 ** Profile: "SCHEMATIC1-sim_test"  [ C:\Users\15062\Desktop\design\test-pspicefiles\schematic1\sim_test.sim ] 


 ****     BJT MODEL PARAMETERS


******************************************************************************




               X_Q1.NPN        X_Q2.NPN        X_Q3.NPN        
               NPN             NPN             NPN             
       LEVEL    1               1               1            
          IS   47.170000E-18   47.170000E-18   47.170000E-18 
          BF  145             145             145            
          NF     .9934           .9934           .9934       
         VAF   31.12           31.12           31.12         
         IKF     .304            .304            .304        
         ISE  300.200000E-15  300.200000E-15  300.200000E-15 
          NE    3               3               3            
          BR   11.37           11.37           11.37         
          NR     .985            .985            .985        
         VAR    1.874           1.874           1.874        
         IKR     .121            .121            .121        
         ISC  484.800000E-18  484.800000E-18  484.800000E-18 
          NC    1.546           1.546           1.546        
         ISS    0               0               0            
          RB   14.41           14.41           14.41         
         RBM    6.175           6.175           6.175        
          RE     .1779           .1779           .1779       
          RC    1.78            1.78            1.78         
         CJE  310.900000E-15  310.900000E-15  310.900000E-15 
         VJE     .9              .9              .9          
         MJE     .3456           .3456           .3456       
         CJC  137.700000E-15  137.700000E-15  137.700000E-15 
         VJC     .5569           .5569           .5569       
         MJC     .2079           .2079           .2079       
        XCJC     .5              .5              .5          
         CJS  667.500000E-15  667.500000E-15  667.500000E-15 
         VJS     .4183           .4183           .4183       
         MJS     .2391           .2391           .2391       
          FC     .5501           .5501           .5501       
          TF    4.122000E-12    4.122000E-12    4.122000E-12 
         XTF   68.2            68.2            68.2          
         VTF    2.004           2.004           2.004        
         ITF    1.525           1.525           1.525        
         XTB    1.5             1.5             1.5          
          KF    0               0               0            
          AF    1               1               1            
          CN    2.42            2.42            2.42         
           D     .87             .87             .87         


**** 03/01/25 09:31:15 **** PSpice 22.1.0 (15 January 2024) *** ID# 0 ********

 ** Profile: "SCHEMATIC1-sim_test"  [ C:\Users\15062\Desktop\design\test-pspicefiles\schematic1\sim_test.sim ] 


 ****     GaAs MESFET MODEL PARAMETERS


******************************************************************************




               X_B1.NE32500    
       LEVEL    1            
         VTO    -.8          
         VBI     .715        
       ALPHA    8            
        BETA     .103        
          RG    3            
         CGD   20.000000E-15 
         CGS  300.000000E-15 
         CDS  130.000000E-15 
          IS  300.000000E-15 
         TAU    4.000000E-12 
           N    1.22         
       DELTA    1            
       GAMMA     .08         
      VDELTA     .1          
          EG    1.43         
         XTI    3            


**** 03/01/25 09:31:15 **** PSpice 22.1.0 (15 January 2024) *** ID# 0 ********

 ** Profile: "SCHEMATIC1-sim_test"  [ C:\Users\15062\Desktop\design\test-pspicefiles\schematic1\sim_test.sim ] 


 ****     Voltage Controlled Switch MODEL PARAMETERS


******************************************************************************




               X_U1.X_U5.X_S16._S16 
         RON    1            
        ROFF    1.000000E+12 
         VON    0            
        VOFF    1            


               X_U1.X_U5.X_S6._S6 
         RON    1            
        ROFF    1.000000E+12 
         VON    2.5          
        VOFF    1.25         


               X_U1.X_U5.X_S3._S3 
         RON    1            
        ROFF    1.000000E+12 
         VON    2.5          
        VOFF    1.25         


               X_U1.X_U5.X_S17._S17 
         RON    1            
        ROFF    1.000000E+12 
         VON    0            
        VOFF    1            


               X_U1.X_U5.X_S4._S4 
         RON    1            
        ROFF    1.000000E+12 
         VON   -1.25         
        VOFF   -2.5          


               X_U1.X_U5.X_S5._S5 
         RON    1            
        ROFF    1.000000E+12 
         VON   -1.25         
        VOFF   -2.5          


**** 03/01/25 09:31:15 **** PSpice 22.1.0 (15 January 2024) *** ID# 0 ********

 ** Profile: "SCHEMATIC1-sim_test"  [ C:\Users\15062\Desktop\design\test-pspicefiles\schematic1\sim_test.sim ] 


 ****     INITIAL TRANSIENT SOLUTION       TEMPERATURE =   27.000 DEG C


******************************************************************************



 NODE   VOLTAGE     NODE   VOLTAGE     NODE   VOLTAGE     NODE   VOLTAGE


(  VCC)    5.0000  (  VSS)   -5.0000  (N26903)    2.0000 (N28616)    4.0000     

(N28732)     .0379 (N29345)     .0348 (N30371)    1.2500 (N30567)     .3800     

(N30717)     .4083 (N30741)    1.3589 (N30747)    1.0250 (N30974)    0.0000     

(N32314)     .0348 (N32730)    5.0000 (N32846)     .7875 (N33338)     .3800     

(N33678)     .0348 (X_B1.4)     .7622 (X_B1.5)     .0253 (X_B1.6)     .0348     

(X_B1.7)     .7622 (X_B1.8)     .0253 (X_B1.9)     .0348 (X_D1.1)     .0348     

(X_D1.2)     .0379 (X_Q1.4)     .4083 (X_Q1.5)    1.3589 (X_Q1.6)     .3800     

(X_Q1.7)     .3800 (X_Q1.8)     .3800 (X_Q2.4)     .7875 (X_Q2.5)    1.0250     

(X_Q2.6)     .3800 (X_Q2.7)     .3800 (X_Q2.8)     .3800 (X_Q3.4)     .0348     

(X_Q3.5)     .4083 (X_Q3.6)    2.0000 (X_Q3.7)    2.0000 (X_Q3.8)    2.0000     

(X_B1.10)     .0337                   (X_B1.11)     .0348                       

(X_B1.12)     .0337                   (X_D1.10)     .0348                       

(X_U1.EN)    0.0000                   (X_U1.LATCH)    5.0000                    

(X_U1.VHYST)    0.0000                (X_U1.VLOGIC)    1.0000                   

(X_U1.IN+BUFF)     .0379              (X_U1.IN-BUFF)    4.0000                  

(X_U1.N891263)    0.0000              (X_U1.N891299)    0.0000                  

(X_U1.N892466)     .0384              (X_U1.N892600)    0.0000                  

(X_U1.N893364)    5.0000              (X_U1.N893591)    0.0000                  

(X_U1.X_U3.VH)    0.0000              (X_U1.X_U5.1V)    1.0000                  

(X_U1.X_U7.1V)    1.0000              (X_U1.N8917111) 1.000E-06                 

(X_U1.X_U3.OUT)    0.0000             (X_U1.X_U7.POR)    0.0000                 

(X_U1.X_U9.VLE)    1.2500             (X_U1.X_U3.VMID)    2.5000                

(X_U1.VEE_BUFFER)    0.0000           (X_U1.X_U11.OUT2)    1.0000               

(X_U1.VCCI_BUFFER)    5.0000          (X_U1.X_U3.INNNEW)    4.0000              

(X_U1.X_U4.N06672)    0.0000          (X_U1.X_U5.X_U2.4)    0.0000              

(X_U1.X_U9.N00729)    1.2500          (X_U1.X_U12.N11903)    5.0000             

(X_U1.X_U12.N11909)    5.0000         (X_U1.X_U12.N11937)    5.0000             

(X_U1.X_U12.N11943)    5.0000         (X_U1.X_U12.N12017)    5.0000             

(X_U1.X_U12.N12181)    0.0000         (X_U1.X_U12.N12289)    0.0000             

(X_U1.X_U12.VLOGIC)    5.0000         (X_U1.X_U12.X_U4.4)    5.0000             

(X_U1.X_U12.X_U5.4)    0.0000         (X_U1.X_U12.X_U6.3)    5.0000             

(X_U1.X_U19.N20155)    5.3000         (X_U1.X_U19.N20415)    -.3000             

(X_U1.X_U19.N20531)    0.0000         (X_U1.X_U19.N20539)    -.3000             

(X_U1.X_U19.N20826)    0.0000         (X_U1.X_U19.N20833)    0.0000             

(X_U1.X_U19.N20840)    0.0000         (X_U1.X_U4.N065860)    0.0000             

(X_U1.X_U5.N903216)    1.3750         (X_U1.X_U5.N903460)    1.3673             

(X_U1.X_U5.N903474)    1.0250         (X_U1.X_U5.N903506)    1.0250             

(X_U1.X_U5.N903742)    1.3666         (X_U1.X_U5.N903930)    1.0250             

(X_U1.X_U5.X_U10.4)    0.0000         (X_U1.X_U7.N784593)    5.5600             

(X_U1.X_U7.N784683)    5.0000         (X_U1.X_U7.N784697)    0.0000             

(X_U1.X_U7.N784807)    0.0000         (X_U1.X_U7.N784909)    2.3900             

(X_U1.X_U7.N785081)    2.3900         (X_U1.X_U7.X_U17.4)    0.0000             

(X_U1.X_U19.N202710)    5.3000        (X_U1.X_U19.X_U24.6)    0.0000            

(X_U1.X_U5.N9032561)    1.2000        (X_U1.X_U5.N9040901)    1.2000            

(X_U1.X_U7.X_U5.OUT2)    0.0000       (X_U1.X_U12.X_U2.OUT2)    0.0000          

(X_U1.X_U12.X_U3.OUT2)    5.0000      (X_U1.X_U19.X_U1.OUT2)    0.0000          

(X_U1.X_U5.OUTOFRANGE)    0.0000      (X_U1.X_U7.X_U13.OUT1)    5.0000          

(X_U1.X_U7.X_U15.OUT2)    0.0000      (X_U1.X_U7.X_U16.OUT2)    0.0000          

(X_U1.X_U19.X_U21.OUT2)    0.0000     (X_U1.X_U19.X_U22.OUT2)    0.0000         

(X_U1.X_U19.X_U23.OUT2)    0.0000     (X_U1.X_U5.SHUTDOWN_OUT)    0.0000        

(X_U1.SHUTDOWN_IQ_CONTROL)    1.0000  (X_U1.X_LATCH_DEALY.N06081)   10.0000     

(X_U1.X_U5.OUTPUT_SHUTDOWN)    0.0000 (X_U1.X_LATCH_DEALY.N059950)    5.0000    

(X_U1.X_Supply_Currents.N833564)     .0052                                      

(X_U1.X_Supply_Currents.N833572)     .0075                                      

(X_U1.X_Supply_Currents.N833584) 100.0E-06                                      

(X_U1.X_Supply_Currents.N833598)     .0015                                      

(X_U1.X_Supply_Currents.X_U1.VCC1)    4.9948                                    

(X_U1.X_Supply_Currents.X_U2.VCC1)    4.9925             




    VOLTAGE SOURCE CURRENTS
    NAME         CURRENT

    V_V1        -1.729E-02
    V_V2         0.000E+00
    V_V3        -2.057E-10
    V_V4        -1.000E-06
    V_V6         1.225E-02
    V_V7         4.210E-03
    V_V8        -4.213E-03
    V_V9         2.469E-06
    X_U1.V_V8    0.000E+00
    X_U1.V_VOS   0.000E+00
    X_U1.X_Supply_Currents.V_V2   0.000E+00
    X_U1.X_Supply_Currents.V_V1   0.000E+00
    X_U1.X_Supply_Currents.V_V3   0.000E+00
    X_U1.X_Supply_Currents.V_V4   0.000E+00
    X_U1.X_U12.V_V1   0.000E+00
    X_U1.X_U12.V_V8   0.000E+00
    X_U1.X_U12.V_V7   0.000E+00
    X_U1.X_U19.V_VCMNN   0.000E+00
    X_U1.X_U19.V_VCMPN   0.000E+00
    X_U1.X_U19.V_VCMNP   0.000E+00
    X_U1.X_U19.V_VCMPP   0.000E+00
    X_U1.X_U9.V_VLATCH   0.000E+00
    X_U1.X_U5.V_VLOGIC   0.000E+00
    X_U1.X_U5.V_V17  -3.745E-08
    X_U1.X_U5.V_V18  -3.745E-08
    X_U1.X_U5.V_V14  -7.662E-03
    X_U1.X_U5.V_V16  -7.662E-03
    X_U1.X_U7.V_VS_MAX_SET   0.000E+00
    X_U1.X_U7.V_VLOGIC   0.000E+00
    X_U1.X_U7.V_VS_MIN_SET1   0.000E+00
    X_U1.X_U7.V_VS_MIN_SET   0.000E+00

    TOTAL POWER DISSIPATION   1.13E-01  WATTS



          JOB CONCLUDED

**** 03/01/25 09:31:15 **** PSpice 22.1.0 (15 January 2024) *** ID# 0 ********

 ** Profile: "SCHEMATIC1-sim_test"  [ C:\Users\15062\Desktop\design\test-pspicefiles\schematic1\sim_test.sim ] 


 ****     JOB STATISTICS SUMMARY


******************************************************************************



  Total job time (using Solver 1)   =        1.63
